# vsim -c tb_top hdl_top -do "run -all; quit" "+UVM_TESTNAME=axi4_virtual_write_test" "+UVM_VERBOSITY=UVM_HIGH" 
# Start time: 12:56:45 on Aug 17,2026
# ** Note: (vsim-3812) Design is being optimized...
# ** Warning: rtl/decoder.v(370): (vopt-2241) Connection width does not match width of port 'bresp'. The port definition is at: rtl/write_response_handler.v(9).
# ** Warning: rtl/Top_Module_AXI4.v(133): (vopt-2241) Connection width does not match width of port 'write_data'. The port definition is at: rtl/decoder.v(25).
# ** Warning: rtl/Top_Module_AXI4.v(133): (vopt-2241) Connection width does not match width of port 'bresp'. The port definition is at: rtl/decoder.v(64).
# ** Warning: rtl/Top_Module_AXI4.v(133): (vopt-2241) Connection width does not match width of port 'rresp'. The port definition is at: rtl/decoder.v(59).
# ** Warning: rtl/Top_Module_AXI4.v(133): (vopt-2241) Connection width does not match width of port 'arlock'. The port definition is at: rtl/decoder.v(47).
# ** Warning: rtl/AXI_Master.v(124): (vopt-2241) Connection width does not match width of port 'AWID'. The port definition is at: rtl/AXI_MASTER_WRITE_CONTROL.v(32).
# ** Warning: rtl/AXI_Master.v(124): (vopt-2241) Connection width does not match width of port 'WDATA'. The port definition is at: rtl/AXI_MASTER_WRITE_CONTROL.v(47).
# ** Warning: rtl/AXI_Master.v(124): (vopt-2241) Connection width does not match width of port 'awlen_d'. The port definition is at: rtl/AXI_MASTER_WRITE_CONTROL.v(63).
# ** Warning: rtl/AXI_Master.v(124): (vopt-2241) Connection width does not match width of port 'wdata_d'. The port definition is at: rtl/AXI_MASTER_WRITE_CONTROL.v(70).
# ** Warning: rtl/AXI_Master.v(182): (vopt-2241) Connection width does not match width of port 'ARLEN'. The port definition is at: rtl/AXI_MASTER_READ_CONTROL.v(32).
# ** Warning: rtl/AXI_Master.v(182): (vopt-2241) Connection width does not match width of port 'RDATA'. The port definition is at: rtl/AXI_MASTER_READ_CONTROL.v(42).
# ** Warning: rtl/AXI_Master.v(182): (vopt-2241) Connection width does not match width of port 'rdata_d'. The port definition is at: rtl/AXI_MASTER_READ_CONTROL.v(66).
# ** Warning: rtl/AXI_Master.v(182): (vopt-2241) Connection width does not match width of port 'rid_d'. The port definition is at: rtl/AXI_MASTER_READ_CONTROL.v(68).
# ** Warning: rtl/Top_Module_AXI4.v(177): (vopt-2241) Connection width does not match width of port 'AWID'. The port definition is at: rtl/AXI_Master.v(30).
# ** Warning: rtl/Top_Module_AXI4.v(177): (vopt-2241) Connection width does not match width of port 'AWLEN'. The port definition is at: rtl/AXI_Master.v(32).
# ** Warning: rtl/Top_Module_AXI4.v(177): (vopt-2241) Connection width does not match width of port 'WDATA'. The port definition is at: rtl/AXI_Master.v(44).
# ** Warning: rtl/Top_Module_AXI4.v(177): (vopt-2241) Connection width does not match width of port 'ARLEN'. The port definition is at: rtl/AXI_Master.v(58).
# ** Warning: rtl/Top_Module_AXI4.v(177): (vopt-2241) Connection width does not match width of port 'RDATA'. The port definition is at: rtl/AXI_Master.v(69).
# ** Warning: rtl/Top_Module_AXI4.v(177): (vopt-2241) Connection width does not match width of port 'awlen_d'. The port definition is at: rtl/AXI_Master.v(79).
# ** Warning: rtl/Top_Module_AXI4.v(177): (vopt-2241) Connection width does not match width of port 'wdata_d'. The port definition is at: rtl/AXI_Master.v(86).
# ** Warning: rtl/Top_Module_AXI4.v(177): (vopt-2241) Connection width does not match width of port 'rdata_d'. The port definition is at: rtl/AXI_Master.v(107).
# ** Warning: rtl/Top_Module_AXI4.v(177): (vopt-2241) Connection width does not match width of port 'rid_d'. The port definition is at: rtl/AXI_Master.v(109).
# ** Warning: hdl_top/hdl_top.sv(80): (vopt-2241) Connection width does not match width of port 'AWLEN_a'. The port definition is at: rtl/Top_Module_AXI4.v(44).
# ** Warning: hdl_top/hdl_top.sv(80): (vopt-2241) Connection width does not match width of port 'AWCACHE_a'. The port definition is at: rtl/Top_Module_AXI4.v(48).
# ** Warning: hdl_top/hdl_top.sv(80): (vopt-2241) Connection width does not match width of port 'WDATA_a'. The port definition is at: rtl/Top_Module_AXI4.v(61).
# ** Warning: hdl_top/hdl_top.sv(80): (vopt-2241) Connection width does not match width of port 'WSTRB_a'. The port definition is at: rtl/Top_Module_AXI4.v(62).
# ** Warning: hdl_top/hdl_top.sv(80): (vopt-2241) Connection width does not match width of port 'ARLEN_a'. The port definition is at: rtl/Top_Module_AXI4.v(53).
# ** Warning: hdl_top/hdl_top.sv(80): (vopt-2241) Connection width does not match width of port 'ARCACHE_a'. The port definition is at: rtl/Top_Module_AXI4.v(57).
# ** Warning: hdl_top/hdl_top.sv(80): (vopt-2241) Connection width does not match width of port 'RDATA_a'. The port definition is at: rtl/Top_Module_AXI4.v(32).
# ** Warning: hdl_top/hdl_top.sv(80): (vopt-2685) [TFMPC] - Too few port connections for 'dut'.  Expected 46, found 45.
# ** Warning: hdl_top/hdl_top.sv(80): (vopt-2718) [TFMPC] - Missing connection for port 'WID_a'.
# //  Questa Sim
# //  Version 10.6c linux Jul 25 2017
# //
# //  Copyright 1991-2017 Mentor Graphics Corporation
# //  All Rights Reserved.
# //
# //  QuestaSim and its associated documentation contain trade
# //  secrets and commercial or financial information that are the property of
# //  Mentor Graphics Corporation and are privileged, confidential,
# //  and exempt from disclosure under the Freedom of Information Act,
# //  5 U.S.C. Section 552. Furthermore, this information
# //  is prohibited from disclosure under the Trade Secrets Act,
# //  18 U.S.C. Section 1905.
# //
# Loading sv_std.std
# Loading work.cpu_if(fast)
# Loading work.axi4_slave_driver_bfm(fast)
# Loading work.axi4_slave_monitor_bfm(fast)
# Loading work.axi4_globals_pkg(fast)
# Loading mtiUvm.uvm_pkg
# Loading work.axi4_slave_pkg(fast)
# Loading work.cpu_tb_pkg(fast)
# Loading work.axi4_globals_pkg_sv_unit(fast)
# Loading work.tb_top(fast)
# Loading work.hdl_top(fast)
# Loading mtiUvm.questa_uvm_pkg(fast)
# Loading /tools/mentor/questasim_10.6c/questasim/uvm-1.1d/linux/uvm_dpi.so
# run -all
# ----------------------------------------------------------------
# UVM-1.1d
# (C) 2007-2013 Mentor Graphics Corporation
# (C) 2007-2013 Cadence Design Systems, Inc.
# (C) 2006-2013 Synopsys, Inc.
# (C) 2011-2013 Cypress Semiconductor Corp.
# ----------------------------------------------------------------
# 
#   ***********       IMPORTANT RELEASE NOTES         ************
# 
#   You are using a version of the UVM library that has been compiled
#   with `UVM_NO_DEPRECATED undefined.
#   See http://www.eda.org/svdb/view.php?id=3313 for more details.
# 
#   You are using a version of the UVM library that has been compiled
#   with `UVM_OBJECT_MUST_HAVE_CONSTRUCTOR undefined.
#   See http://www.eda.org/svdb/view.php?id=3770 for more details.
# 
#       (Specify +UVM_NO_RELNOTES to turn off this notice)
# 
# UVM_INFO verilog_src/questa_uvm_pkg-1.2/src/questa_uvm_pkg.sv(215) @ 0: reporter [Questa UVM] QUESTA_UVM-1.2.3
# UVM_INFO verilog_src/questa_uvm_pkg-1.2/src/questa_uvm_pkg.sv(217) @ 0: reporter [Questa UVM]  questa_uvm::init(+struct)
# UVM_INFO @ 0: reporter [RNTST] Running test axi4_virtual_write_test...
# HDL_TOP
# UVM_INFO hdl_top/slave_agent_bfm/axi4_slave_driver_bfm.sv(94) @ 0: reporter [axi4 slave driver bfm] AXI4 SLAVE DRIVER BFM
# UVM_INFO hdl_top/slave_agent_bfm/axi4_slave_monitor_bfm.sv(82) @ 0: reporter [axi4 slave monitor bfm] AXI4 SLAVE MONITOR BFM
# UVM_INFO hdl_top/slave_assertions.sv(70) @ 0: reporter [SLAVE_ASSERTIONS] SLAVE_ASSERTIONS
# UVM_INFO hdl_top/slave_agent_bfm/axi4_slave_agent_bfm.sv(175) @ 0: reporter [axi4 slave agent bfm] AXI4 SLAVE AGENT BFM
# ** Fatal: (SIGSEGV) Bad handle or reference.
#    Time: 0 ps  Iteration: 7  Process: /uvm_pkg::uvm_phase::m_run_phases/#FORK#1847_f6d7153 File: /tools/mentor/questasim_10.6c/questasim/linux/../verilog_src/uvm-1.1d/src/base/uvm_common_phases.svh
# Fatal error in Function axi4_slave_pkg/axi4_slave_agent::build_phase at vip/axi_slave_vip/axi4_slave_agent.sv line 66
# 
# HDL call sequence:
# Stopped at vip/axi_slave_vip/axi4_slave_agent.sv 66 Function axi4_slave_pkg/axi4_slave_agent::build_phase
# called from  /tools/mentor/questasim_10.6c/questasim/linux/../verilog_src/uvm-1.1d/src/base/uvm_common_phases.svh 54 Function uvm_pkg/uvm_build_phase::exec_func
# called from  /tools/mentor/questasim_10.6c/questasim/linux/../verilog_src/uvm-1.1d/src/base/uvm_topdown_phase.svh 111 Function uvm_pkg/uvm_topdown_phase::execute
# called from  /tools/mentor/questasim_10.6c/questasim/linux/../verilog_src/uvm-1.1d/src/base/uvm_topdown_phase.svh 78 Function uvm_pkg/uvm_topdown_phase::traverse
# called from  /tools/mentor/questasim_10.6c/questasim/linux/../verilog_src/uvm-1.1d/src/base/uvm_topdown_phase.svh 95 Function uvm_pkg/uvm_topdown_phase::traverse
# called from  /tools/mentor/questasim_10.6c/questasim/linux/../verilog_src/uvm-1.1d/src/base/uvm_topdown_phase.svh 95 Function uvm_pkg/uvm_topdown_phase::traverse
# called from  /tools/mentor/questasim_10.6c/questasim/linux/../verilog_src/uvm-1.1d/src/base/uvm_topdown_phase.svh 95 Function uvm_pkg/uvm_topdown_phase::traverse
# called from  /tools/mentor/questasim_10.6c/questasim/linux/../verilog_src/uvm-1.1d/src/base/uvm_topdown_phase.svh 95 Function uvm_pkg/uvm_topdown_phase::traverse
# called from  /tools/mentor/questasim_10.6c/questasim/linux/../verilog_src/uvm-1.1d/src/base/uvm_phase.svh 1156 Task uvm_pkg/uvm_phase::execute_phase
# called from  /tools/mentor/questasim_10.6c/questasim/linux/../verilog_src/uvm-1.1d/src/base/uvm_phase.svh 1847 Task uvm_pkg/uvm_phase::m_run_phases
# 
#  quit
# End time: 12:56:50 on Aug 17,2026, Elapsed time: 0:00:05
# Errors: 2, Warnings: 31
